time	V(vd)	V(vg)	I(D1)	I(L1)	Id(M1)	Ig(M1)
0.000000000000000e+000	4.773542e-001	1.150268e+001	-5.469719e-008	5.356712e+000	5.356712e+000	4.331320e-006
9.999999960041972e-011	4.773544e-001	1.150268e+001	-5.469721e-008	5.356715e+000	5.356715e+000	4.331245e-006
2.999999996686209e-010	4.773549e-001	1.150268e+001	-5.469722e-008	5.356721e+000	5.356721e+000	4.331097e-006
5.669999999999287e-007	4.787254e-001	1.150514e+001	-5.544821e-008	5.372568e+000	5.372568e+000	3.945192e-006
5.670000281210353e-007	4.787254e-001	1.150514e+001	-5.499030e-008	5.372568e+000	5.372568e+000	3.944049e-006
5.670000562421420e-007	4.787254e-001	1.150514e+001	-5.464642e-008	5.372568e+000	5.372568e+000	3.943250e-006
5.670000843632486e-007	4.787254e-001	1.150514e+001	-5.441657e-008	5.372568e+000	5.372568e+000	3.942797e-006
5.670001124843552e-007	4.787254e-001	1.150514e+001	-5.430076e-008	5.372568e+000	5.372568e+000	3.942688e-006
5.670001406054618e-007	4.787254e-001	1.150514e+001	-5.429897e-008	5.372568e+000	5.372568e+000	3.942925e-006
5.670001687265685e-007	4.787254e-001	1.150514e+001	-5.441122e-008	5.372568e+000	5.372568e+000	3.943507e-006
5.670001968476751e-007	4.787254e-001	1.150514e+001	-5.463750e-008	5.372568e+000	5.372568e+000	3.944433e-006
5.670003944673735e-007	4.787254e-001	1.150514e+001	-5.452546e-008	5.372568e+000	5.372568e+000	3.945683e-006
5.670007897067703e-007	4.787254e-001	1.150514e+001	-5.429707e-008	5.372568e+000	5.372568e+000	3.948452e-006
5.670015801855638e-007	4.787254e-001	1.150514e+001	-5.382433e-008	5.372568e+000	5.372568e+000	3.954461e-006
5.670031611431509e-007	4.787254e-001	1.150514e+001	-5.285170e-008	5.372568e+000	5.372568e+000	3.968467e-006
5.670063230583250e-007	4.787254e-001	1.150514e+001	-5.093544e-008	5.372568e+000	5.372568e+000	4.003671e-006
5.670126468886733e-007	4.787254e-001	1.150514e+001	-4.732045e-008	5.372568e+000	5.372568e+000	4.099039e-006
5.670252945493698e-007	4.787254e-001	1.150515e+001	-4.013017e-008	5.372569e+000	5.372569e+000	4.383482e-006
5.670505898707628e-007	4.787255e-001	1.150515e+001	-2.461971e-008	5.372569e+000	5.372569e+000	5.310168e-006
5.671011805135490e-007	4.787257e-001	1.150516e+001	7.745855e-009	5.372571e+000	5.372571e+000	8.472927e-006
5.672023617991212e-007	4.787262e-001	1.150519e+001	6.682721e-008	5.372573e+000	5.372573e+000	1.869043e-005
5.673485407734283e-007	4.787272e-001	1.150526e+001	1.320608e-007	5.372577e+000	5.372577e+000	4.006887e-005
5.675115344952464e-007	4.787285e-001	1.150536e+001	1.749295e-007	5.372582e+000	5.372582e+000	7.132548e-005
5.677276462955766e-007	4.787304e-001	1.150553e+001	1.917271e-007	5.372588e+000	5.372588e+000	1.205614e-004
5.679971807450238e-007	4.787327e-001	1.150576e+001	1.786536e-007	5.372595e+000	5.372595e+000	1.870202e-004
5.680000000002697e-007	4.787327e-001	1.150576e+001	1.775958e-007	5.372596e+000	5.372595e+000	1.877232e-004
5.680056385107615e-007	4.787328e-001	1.150577e+001	1.734694e-007	5.372596e+000	5.372596e+000	1.891007e-004
5.680169155317452e-007	4.787329e-001	1.150578e+001	1.647369e-007	5.372596e+000	5.372596e+000	1.917755e-004
5.680394695737126e-007	4.787330e-001	1.150580e+001	1.476701e-007	5.372597e+000	5.372597e+000	1.968545e-004
5.680845776576474e-007	4.787333e-001	1.150583e+001	1.127694e-007	5.372598e+000	5.372598e+000	2.059983e-004
5.681747938255169e-007	4.787338e-001	1.150589e+001	4.677143e-008	5.372601e+000	5.372601e+000	2.207747e-004
5.683552261612559e-007	4.787343e-001	1.150599e+001	-5.659285e-008	5.372605e+000	5.372606e+000	2.395777e-004
5.687160908327341e-007	4.787343e-001	1.150610e+001	-1.900221e-007	5.372616e+000	5.372616e+000	2.537525e-004
5.690811593107858e-007	4.787335e-001	1.150615e+001	-2.715473e-007	5.372626e+000	5.372626e+000	2.439706e-004
5.695834163323491e-007	4.787312e-001	1.150608e+001	-4.186191e-007	5.372640e+000	5.372640e+000	1.902237e-004
5.698615268487361e-007	4.787289e-001	1.150591e+001	-6.359343e-007	5.372648e+000	5.372648e+000	1.207679e-004
5.700235090047232e-007	4.787265e-001	1.150568e+001	-8.801801e-007	5.372652e+000	5.372653e+000	4.081363e-005
5.701745797396379e-007	4.787231e-001	1.150531e+001	-1.182261e-006	5.372656e+000	5.372657e+000	-7.931894e-005
5.703392864566531e-007	4.787178e-001	1.150471e+001	-1.533472e-006	5.372661e+000	5.372663e+000	-2.685997e-004
5.705550486061195e-007	4.787084e-001	1.150353e+001	-1.956854e-006	5.372667e+000	5.372669e+000	-6.264496e-004
5.709512214966198e-007	4.786861e-001	1.150027e+001	-2.483859e-006	5.372678e+000	5.372681e+000	-1.562315e-003
5.715285928261857e-007	4.786503e-001	1.149356e+001	-2.581663e-006	5.372694e+000	5.372697e+000	-3.366761e-003
5.721523696966199e-007	4.786179e-001	1.148414e+001	-1.813722e-006	5.372712e+000	5.372713e+000	-5.695344e-003
5.728147680636800e-007	4.786033e-001	1.147220e+001	-3.020454e-007	5.372730e+000	5.372730e+000	-8.361963e-003
5.735156051412879e-007	4.786169e-001	1.145792e+001	1.532420e-006	5.372750e+000	5.372748e+000	-1.122137e-002
5.741601493882559e-007	4.786538e-001	1.144312e+001	2.794563e-006	5.372767e+000	5.372765e+000	-1.395098e-002
5.746538465547374e-007	4.786834e-001	1.142882e+001	1.258352e-006	5.372781e+000	5.372780e+000	-1.667222e-002
5.750293483623367e-007	4.786802e-001	1.141258e+001	-2.363211e-006	5.372792e+000	5.372794e+000	-2.016725e-002
5.754519300897598e-007	4.786407e-001	1.138670e+001	-4.939439e-006	5.372804e+000	5.372808e+000	-2.606326e-002
5.758388992209776e-007	4.786027e-001	1.135776e+001	-3.177330e-006	5.372815e+000	5.372818e+000	-3.254646e-002
5.762558495632855e-007	4.786116e-001	1.132286e+001	1.582193e-006	5.372826e+000	5.372825e+000	-3.977128e-002
5.770897502479014e-007	4.788128e-001	1.124850e+001	1.296525e-005	5.372849e+000	5.372837e+000	-5.326869e-002
5.780897502482424e-007	4.793377e-001	1.115632e+001	2.646996e-005	5.372877e+000	5.372851e+000	-6.722105e-002
5.790897502485834e-007	4.801735e-001	1.106267e+001	3.838728e-005	5.372905e+000	5.372867e+000	-7.843544e-002
5.800897502489244e-007	4.812841e-001	1.096856e+001	4.838739e-005	5.372933e+000	5.372885e+000	-8.716509e-002
5.809844196629985e-007	4.824624e-001	1.088455e+001	5.634900e-005	5.372958e+000	5.372902e+000	-9.327877e-002
5.814524832769077e-007	4.831527e-001	1.084151e+001	6.115661e-005	5.372971e+000	5.372910e+000	-9.563999e-002
5.817608815421663e-007	4.836473e-001	1.081445e+001	6.449281e-005	5.372980e+000	5.372915e+000	-9.657773e-002
5.820790874499701e-007	4.841830e-001	1.078763e+001	6.670169e-005	5.372989e+000	5.372922e+000	-9.710735e-002
5.822953725361652e-007	4.845560e-001	1.076969e+001	6.757137e-005	5.372995e+000	5.372927e+000	-9.735122e-002
5.825876108660547e-007	4.850686e-001	1.074568e+001	6.865674e-005	5.373003e+000	5.372934e+000	-9.758338e-002
5.829615351716361e-007	4.857343e-001	1.071526e+001	7.001386e-005	5.373013e+000	5.372943e+000	-9.776244e-002
5.832055359296026e-007	4.861755e-001	1.069567e+001	7.089219e-005	5.373020e+000	5.372949e+000	-9.778662e-002
5.835035232900840e-007	4.867215e-001	1.067207e+001	7.183746e-005	5.373028e+000	5.372957e+000	-9.771532e-002
5.836748003217041e-007	4.870380e-001	1.065861e+001	7.225820e-005	5.373033e+000	5.372961e+000	-9.764031e-002
5.837938325189973e-007	4.872593e-001	1.064931e+001	7.248000e-005	5.373036e+000	5.372964e+000	-9.757524e-002
5.839619136470062e-007	4.875729e-001	1.063621e+001	7.275090e-005	5.373041e+000	5.372968e+000	-9.747639e-002
5.841173249237358e-007	4.878638e-001	1.062412e+001	7.298204e-005	5.373045e+000	5.372972e+000	-9.738087e-002
5.842930111011474e-007	4.881938e-001	1.061048e+001	7.322890e-005	5.373050e+000	5.372977e+000	-9.726933e-002
5.844902047722617e-007	4.885655e-001	1.059521e+001	7.349682e-005	5.373056e+000	5.372983e+000	-9.714095e-002
5.847230748539864e-007	4.890062e-001	1.057720e+001	7.380587e-005	5.373063e+000	5.372989e+000	-9.698604e-002
5.850169360792704e-007	4.895649e-001	1.055454e+001	7.418932e-005	5.373071e+000	5.372996e+000	-9.678686e-002
5.853057998541841e-007	4.901174e-001	1.053234e+001	7.456106e-005	5.373079e+000	5.373004e+000	-9.658746e-002
5.858835274048790e-007	4.912305e-001	1.048810e+001	7.529721e-005	5.373095e+000	5.373020e+000	-9.618197e-002
5.864480924705831e-007	4.923290e-001	1.044510e+001	7.601316e-005	5.373110e+000	5.373034e+000	-9.578007e-002
5.873922947095475e-007	4.941890e-001	1.037364e+001	7.721165e-005	5.373137e+000	5.373060e+000	-9.510045e-002
5.882726912430011e-007	4.959476e-001	1.030749e+001	7.833832e-005	5.373161e+000	5.373083e+000	-9.446319e-002
5.892726912433421e-007	4.979765e-001	1.023295e+001	7.963487e-005	5.373189e+000	5.373109e+000	-9.373817e-002
5.902726912436832e-007	5.000377e-001	1.015903e+001	8.095356e-005	5.373217e+000	5.373136e+000	-9.301465e-002
5.912726912440242e-007	5.021329e-001	1.008572e+001	8.229802e-005	5.373245e+000	5.373162e+000	-9.229429e-002
5.922726912443652e-007	5.042627e-001	1.001304e+001	8.367064e-005	5.373272e+000	5.373189e+000	-9.157816e-002
5.932726912447062e-007	5.064279e-001	9.940956e+000	8.507330e-005	5.373301e+000	5.373215e+000	-9.086688e-002
5.942726912450472e-007	5.086293e-001	9.869480e+000	8.650757e-005	5.373328e+000	5.373242e+000	-9.016085e-002
5.952726912453882e-007	5.108675e-001	9.798606e+000	8.797483e-005	5.373356e+000	5.373268e+000	-8.946030e-002
5.962726912457292e-007	5.131436e-001	9.728328e+000	8.947635e-005	5.373384e+000	5.373294e+000	-8.876534e-002
5.972726912460702e-007	5.154584e-001	9.658642e+000	9.101340e-005	5.373412e+000	5.373321e+000	-8.807605e-002
5.982726912464112e-007	5.178128e-001	9.589543e+000	9.258716e-005	5.373439e+000	5.373347e+000	-8.739246e-002
6.002726912470932e-007	5.226442e-001	9.453094e+000	9.584984e-005	5.373495e+000	5.373399e+000	-8.604240e-002
6.022726912477752e-007	5.276458e-001	9.318952e+000	9.927461e-005	5.373550e+000	5.373451e+000	-8.471503e-002
6.044155483913631e-007	5.331697e-001	9.177830e+000	1.030912e-004	5.373609e+000	5.373506e+000	-8.331857e-002
6.065584055349510e-007	5.389423e-001	9.039203e+000	1.071642e-004	5.373669e+000	5.373562e+000	-8.194685e-002
6.087012626785388e-007	5.449638e-001	8.903070e+000	1.114935e-004	5.373728e+000	5.373617e+000	-8.059986e-002
6.108441198221267e-007	5.512340e-001	8.769431e+000	1.160792e-004	5.373787e+000	5.373671e+000	-7.927761e-002
6.129869769657145e-007	5.577531e-001	8.638285e+000	1.209212e-004	5.373846e+000	5.373725e+000	-7.798010e-002
6.151298341093025e-007	5.645210e-001	8.509634e+000	1.260196e-004	5.373905e+000	5.373779e+000	-7.670732e-002
6.172726912528903e-007	5.715377e-001	8.383476e+000	1.313743e-004	5.373964e+000	5.373833e+000	-7.545928e-002
6.204155483968192e-007	5.822300e-001	8.202792e+000	1.395873e-004	5.374051e+000	5.373911e+000	-7.367200e-002
6.235584055407481e-007	5.938283e-001	8.027015e+000	1.489009e-004	5.374137e+000	5.373988e+000	-7.193342e-002
6.267012626846770e-007	6.063328e-001	7.856143e+000	1.593152e-004	5.374223e+000	5.374063e+000	-7.024353e-002
6.298441198286058e-007	6.197433e-001	7.690179e+000	1.708301e-004	5.374309e+000	5.374138e+000	-6.860233e-002
6.329869769725347e-007	6.340599e-001	7.529120e+000	1.834457e-004	5.374394e+000	5.374211e+000	-6.700983e-002
6.361298341164636e-007	6.492825e-001	7.372968e+000	1.971620e-004	5.374479e+000	5.374282e+000	-6.546602e-002
6.392726912603924e-007	6.654113e-001	7.221723e+000	2.119789e-004	5.374565e+000	5.374353e+000	-6.397091e-002
6.418441198326979e-007	6.794716e-001	7.101381e+000	2.251706e-004	5.374634e+000	5.374409e+000	-6.278141e-002
6.444155484050033e-007	6.947071e-001	6.984267e+000	2.400890e-004	5.374704e+000	5.374464e+000	-6.162390e-002
6.469869769773087e-007	7.111178e-001	6.870380e+000	2.567340e-004	5.374773e+000	5.374516e+000	-6.049839e-002
6.495584055496143e-007	7.287035e-001	6.759721e+000	2.751057e-004	5.374842e+000	5.374567e+000	-5.940486e-002
6.521298341219197e-007	7.474644e-001	6.652289e+000	2.952041e-004	5.374911e+000	5.374615e+000	-5.834333e-002
6.547012626942251e-007	7.674005e-001	6.548084e+000	3.170291e-004	5.374979e+000	5.374662e+000	-5.731378e-002
6.572726912665305e-007	7.885116e-001	6.447107e+000	3.405808e-004	5.375047e+000	5.374707e+000	-5.631623e-002
6.594155484101184e-007	8.072525e-001	6.365418e+000	3.619486e-004	5.375104e+000	5.374742e+000	-5.550929e-002
6.615584055537063e-007	8.275457e-001	6.286257e+000	3.859855e-004	5.375160e+000	5.374775e+000	-5.472736e-002
6.637012626972942e-007	8.493914e-001	6.209622e+000	4.126914e-004	5.375217e+000	5.374804e+000	-5.397043e-002
6.658441198408820e-007	8.727896e-001	6.135516e+000	4.420663e-004	5.375273e+000	5.374831e+000	-5.323850e-002
6.679869769844698e-007	8.977402e-001	6.063936e+000	4.741103e-004	5.375328e+000	5.374855e+000	-5.253158e-002
6.701298341280578e-007	9.242433e-001	5.994884e+000	5.088233e-004	5.375384e+000	5.374875e+000	-5.184966e-002
6.722726912716456e-007	9.522988e-001	5.928360e+000	5.462053e-004	5.375440e+000	5.374893e+000	-5.119274e-002
6.752726912726687e-007	9.956988e-001	5.840266e+000	6.062044e-004	5.375516e+000	5.374910e+000	-5.032286e-002
6.782726912736917e-007	1.043854e+000	5.758065e+000	6.750459e-004	5.375593e+000	5.374918e+000	-4.951119e-002
6.812726912747147e-007	1.097452e+000	5.682167e+000	7.541667e-004	5.375669e+000	5.374914e+000	-4.876176e-002
6.832726912753967e-007	1.136593e+000	5.635304e+000	8.134162e-004	5.375719e+000	5.374905e+000	-4.829902e-002
6.852726912760787e-007	1.178763e+000	5.591619e+000	8.784686e-004	5.375768e+000	5.374890e+000	-4.786763e-002
6.862726912764197e-007	1.201073e+000	5.571023e+000	9.133405e-004	5.375793e+000	5.374880e+000	-4.766424e-002
6.872726912767607e-007	1.224249e+000	5.551290e+000	9.498689e-004	5.375818e+000	5.374868e+000	-4.746935e-002
6.882726912771017e-007	1.248330e+000	5.532444e+000	9.881244e-004	5.375842e+000	5.374854e+000	-4.728322e-002
6.892726912774427e-007	1.273358e+000	5.514510e+000	1.028178e-003	5.375866e+000	5.374838e+000	-4.710609e-002
6.902726912777837e-007	1.299375e+000	5.497518e+000	1.070100e-003	5.375891e+000	5.374821e+000	-4.693823e-002
6.912726912781247e-007	1.326424e+000	5.481492e+000	1.113959e-003	5.375915e+000	5.374801e+000	-4.677992e-002
6.922726912784658e-007	1.354551e+000	5.466464e+000	1.159825e-003	5.375939e+000	5.374779e+000	-4.663143e-002
6.932726912788068e-007	1.383801e+000	5.452461e+000	1.207761e-003	5.375963e+000	5.374755e+000	-4.649305e-002
6.942726912791478e-007	1.414222e+000	5.439514e+000	1.257832e-003	5.375987e+000	5.374729e+000	-4.636509e-002
6.962726912798298e-007	1.478773e+000	5.416910e+000	1.364606e-003	5.376033e+000	5.374669e+000	-4.614159e-002
6.982726912805118e-007	1.548601e+000	5.398903e+000	1.480552e-003	5.376080e+000	5.374599e+000	-4.596340e-002
7.002726912811938e-007	1.624111e+000	5.385745e+000	1.605969e-003	5.376125e+000	5.374519e+000	-4.583299e-002
7.012726912815348e-007	1.664124e+000	5.381063e+000	1.672287e-003	5.376148e+000	5.374476e+000	-4.578648e-002
7.032726912822168e-007	1.748901e+000	5.375629e+000	1.810881e-003	5.376193e+000	5.374382e+000	-4.573221e-002
7.042726912825578e-007	1.793452e+000	5.374678e+000	1.859987e-003	5.376215e+000	5.374355e+000	-4.572251e-002
7.052726912828988e-007	1.838687e+000	5.374277e+000	1.874911e-003	5.376237e+000	5.374362e+000	-4.571834e-002
7.062726912832398e-007	1.884051e+000	5.373980e+000	1.878308e-003	5.376258e+000	5.374380e+000	-4.571531e-002
7.072726912835808e-007	1.929411e+000	5.373681e+000	1.882345e-003	5.376280e+000	5.374397e+000	-4.571234e-002
7.092726912842629e-007	2.020127e+000	5.373083e+000	1.889958e-003	5.376322e+000	5.374432e+000	-4.570645e-002
7.157012627150265e-007	2.311040e+000	5.371162e+000	1.912383e-003	5.376452e+000	5.374540e+000	-4.568757e-002
7.221298341457901e-007	2.602438e+000	5.369238e+000	1.938725e-003	5.376574e+000	5.374635e+000	-4.566865e-002
7.285584055765537e-007	2.894322e+000	5.367310e+000	1.968986e-003	5.376687e+000	5.374718e+000	-4.564968e-002
7.349869770073173e-007	3.186692e+000	5.365380e+000	2.003165e-003	5.376791e+000	5.374788e+000	-4.563066e-002
7.414155484380809e-007	3.479547e+000	5.363445e+000	2.041261e-003	5.376887e+000	5.374846e+000	-4.561160e-002
7.478441198688445e-007	3.772888e+000	5.361508e+000	2.083275e-003	5.376974e+000	5.374891e+000	-4.559249e-002
7.542726912996081e-007	4.066714e+000	5.359567e+000	2.129208e-003	5.377053e+000	5.374924e+000	-4.557334e-002
7.569869770148194e-007	4.191234e+000	5.358745e+000	2.151016e-003	5.377084e+000	5.374933e+000	-4.556524e-002
7.597012627300307e-007	4.317222e+000	5.357910e+000	2.180375e-003	5.377113e+000	5.374933e+000	-4.555701e-002
7.624155484452420e-007	4.444679e+000	5.357062e+000	2.217282e-003	5.377141e+000	5.374924e+000	-4.554865e-002
7.651298341604534e-007	4.573603e+000	5.356201e+000	2.261739e-003	5.377167e+000	5.374905e+000	-4.554017e-002
7.678441198756646e-007	4.703996e+000	5.355328e+000	2.313746e-003	5.377191e+000	5.374878e+000	-4.553156e-002
7.705584055908760e-007	4.835858e+000	5.354442e+000	2.373302e-003	5.377214e+000	5.374841e+000	-4.552282e-002
7.732726913060872e-007	4.969188e+000	5.353543e+000	2.440408e-003	5.377235e+000	5.374795e+000	-4.551397e-002
7.749869770209575e-007	5.054837e+000	5.352963e+000	2.490270e-003	5.377248e+000	5.374758e+000	-4.550824e-002
7.767012627358278e-007	5.142878e+000	5.352361e+000	2.552592e-003	5.377260e+000	5.374707e+000	-4.550231e-002
7.784155484506981e-007	5.233310e+000	5.351738e+000	2.627374e-003	5.377271e+000	5.374643e+000	-4.549617e-002
7.801298341655684e-007	5.326135e+000	5.351094e+000	2.714616e-003	5.377281e+000	5.374567e+000	-4.548982e-002
7.818441198804387e-007	5.421351e+000	5.350428e+000	2.814318e-003	5.377291e+000	5.374477e+000	-4.548326e-002
7.835584055953090e-007	5.518959e+000	5.349742e+000	2.926480e-003	5.377300e+000	5.374373e+000	-4.547650e-002
7.852726913101793e-007	5.618959e+000	5.349034e+000	3.051102e-003	5.377308e+000	5.374257e+000	-4.546952e-002
7.882726913112023e-007	5.805655e+000	5.347695e+000	3.327091e-003	5.377320e+000	5.373993e+000	-4.545633e-002
7.912726913122253e-007	6.007820e+000	5.346229e+000	3.673010e-003	5.377330e+000	5.373657e+000	-4.544189e-002
7.942726913132484e-007	6.228707e+000	5.344618e+000	4.089199e-003	5.377337e+000	5.373248e+000	-4.542602e-002
7.961298341710245e-007	6.376271e+000	5.343537e+000	4.386903e-003	5.377340e+000	5.372953e+000	-4.541537e-002
7.979869770288006e-007	6.532331e+000	5.342407e+000	4.693048e-003	5.377341e+000	5.372648e+000	-4.540423e-002
7.998441198865768e-007	6.696888e+000	5.341227e+000	5.007635e-003	5.377341e+000	5.372333e+000	-4.539261e-002
8.017012627443530e-007	6.869942e+000	5.339999e+000	5.330664e-003	5.377340e+000	5.372009e+000	-4.538050e-002
8.035584056021292e-007	7.051493e+000	5.338721e+000	5.662134e-003	5.377337e+000	5.371674e+000	-4.536791e-002
8.054155484599052e-007	7.241541e+000	5.337394e+000	6.002047e-003	5.377332e+000	5.371330e+000	-4.535484e-002
8.072726913176814e-007	7.440086e+000	5.336018e+000	6.350400e-003	5.377326e+000	5.370975e+000	-4.534128e-002
8.095584056041752e-007	7.695775e+000	5.334276e+000	6.759471e-003	5.377316e+000	5.370557e+000	-4.532411e-002
8.118441198906689e-007	7.959338e+000	5.332497e+000	7.186035e-003	5.377304e+000	5.370118e+000	-4.530657e-002
8.141298341771626e-007	8.230777e+000	5.330681e+000	7.630093e-003	5.377289e+000	5.369658e+000	-4.528867e-002
8.164155484636563e-007	8.510091e+000	5.328826e+000	8.091644e-003	5.377270e+000	5.369178e+000	-4.527039e-002
8.187012627501501e-007	8.797280e+000	5.326935e+000	8.570689e-003	5.377249e+000	5.368678e+000	-4.525174e-002
8.209869770366437e-007	9.092344e+000	5.325006e+000	9.067227e-003	5.377225e+000	5.368157e+000	-4.523273e-002
8.232726913231375e-007	9.395283e+000	5.323039e+000	9.581259e-003	5.377198e+000	5.367616e+000	-4.521334e-002
8.248441198951019e-007	9.605700e+000	5.321678e+000	9.952256e-003	5.377177e+000	5.367225e+000	-4.519992e-002
8.264155484670664e-007	9.818100e+000	5.320303e+000	1.036960e-002	5.377155e+000	5.366785e+000	-4.518637e-002
8.279869770390308e-007	1.003248e+001	5.318915e+000	1.083328e-002	5.377132e+000	5.366298e+000	-4.517269e-002
8.295584056109953e-007	1.024885e+001	5.317514e+000	1.134331e-002	5.377106e+000	5.365763e+000	-4.515888e-002
8.311298341829597e-007	1.046720e+001	5.316099e+000	1.189969e-002	5.377079e+000	5.365180e+000	-4.514493e-002
