time	V(vd)	V(vg)	I(D1)	I(L1)	Id(M1)	Ig(M1)
0.000000000000000e+000	1.309546e+001	4.939794e-001	5.144671e+000	5.144672e+000	5.589172e-007	-1.479199e-006
9.999999960041972e-011	1.309546e+001	4.939790e-001	5.144669e+000	5.144669e+000	5.589158e-007	-1.479317e-006
2.999999996686209e-010	1.309546e+001	4.939782e-001	5.144663e+000	5.144664e+000	5.588959e-007	-1.479343e-006
3.350000001099002e-008	1.309541e+001	4.938500e-001	5.143721e+000	5.143721e+000	5.546549e-007	-1.472041e-006
3.450000000092268e-008	1.309541e+001	4.938427e-001	5.143692e+000	5.143693e+000	1.110298e-006	-2.545659e-006
3.459999999965574e-008	1.309541e+001	4.938379e-001	5.143688e+000	5.143690e+000	1.838456e-006	-3.862873e-006
3.479999999798922e-008	1.309541e+001	4.938208e-001	5.143680e+000	5.143684e+000	4.461258e-006	-8.445074e-006
3.510000000546409e-008	1.309541e+001	4.937955e-001	5.143668e+000	5.143676e+000	7.847097e-006	-1.416042e-005
3.550000000039633e-008	1.309541e+001	4.937644e-001	5.143653e+000	5.143664e+000	1.126419e-005	-1.984879e-005
3.554000000023649e-008	1.309541e+001	4.937629e-001	5.143652e+000	5.143663e+000	1.130467e-005	-1.982958e-005
3.561999999904947e-008	1.309541e+001	4.937633e-001	5.143650e+000	5.143661e+000	1.072783e-005	-1.865967e-005
3.577999999754278e-008	1.309541e+001	4.937652e-001	5.143647e+000	5.143657e+000	9.290149e-006	-1.616654e-005
3.609999999452940e-008	1.309541e+001	4.937704e-001	5.143641e+000	5.143647e+000	6.615628e-006	-1.163656e-005
3.665309301643244e-008	1.309541e+001	4.937854e-001	5.143630e+000	5.143632e+000	2.355337e-006	-4.371091e-006
3.765309301677344e-008	1.309541e+001	4.938300e-001	5.143609e+000	5.143603e+000	-5.064789e-006	8.290600e-006
3.865309301711445e-008	1.309541e+001	4.938980e-001	5.143588e+000	5.143575e+000	-1.250255e-005	2.099387e-005
3.965309301745545e-008	1.309540e+001	4.939953e-001	5.143567e+000	5.143547e+000	-2.035050e-005	3.440685e-005
4.065309301779646e-008	1.309540e+001	4.941254e-001	5.143547e+000	5.143518e+000	-2.892502e-005	4.906545e-005
4.165309301813747e-008	1.309540e+001	4.942923e-001	5.143528e+000	5.143490e+000	-3.841990e-005	6.529911e-005
4.265309301847847e-008	1.309540e+001	4.945002e-001	5.143511e+000	5.143461e+000	-4.897977e-005	8.335389e-005
4.365309301881948e-008	1.309540e+001	4.947535e-001	5.143494e+000	5.143433e+000	-6.070315e-005	1.033967e-004
4.465309301916048e-008	1.309540e+001	4.950571e-001	5.143478e+000	5.143404e+000	-7.367846e-005	1.255794e-004
4.565309301950149e-008	1.309540e+001	4.954161e-001	5.143464e+000	5.143376e+000	-8.800497e-005	1.500710e-004
4.665309301984250e-008	1.309540e+001	4.958357e-001	5.143452e+000	5.143348e+000	-1.037683e-004	1.770175e-004
4.765309302018350e-008	1.309540e+001	4.963215e-001	5.143441e+000	5.143320e+000	-1.210106e-004	2.064890e-004
4.865309302052451e-008	1.309540e+001	4.968783e-001	5.143431e+000	5.143291e+000	-1.396916e-004	2.384147e-004
4.965309302086551e-008	1.309540e+001	4.975102e-001	5.143423e+000	5.143263e+000	-1.596788e-004	2.725662e-004
5.065309302120652e-008	1.309540e+001	4.982207e-001	5.143415e+000	5.143234e+000	-1.807824e-004	3.086189e-004
5.165309302154753e-008	1.309540e+001	4.990124e-001	5.143409e+000	5.143206e+000	-2.028480e-004	3.463114e-004
5.265309302188853e-008	1.309540e+001	4.998891e-001	5.143404e+000	5.143178e+000	-2.258943e-004	3.856813e-004
5.365309302222954e-008	1.309540e+001	5.008567e-001	5.143400e+000	5.143149e+000	-2.502825e-004	4.273551e-004
5.465309302257054e-008	1.309539e+001	5.019264e-001	5.143398e+000	5.143121e+000	-2.769353e-004	4.729240e-004
5.565309302291155e-008	1.309539e+001	5.031196e-001	5.143400e+000	5.143093e+000	-3.077318e-004	5.256241e-004
5.665309302325255e-008	1.309539e+001	5.044780e-001	5.143411e+000	5.143064e+000	-3.465383e-004	5.921190e-004
5.765309302359356e-008	1.309540e+001	5.060995e-001	5.143439e+000	5.143036e+000	-4.031996e-004	6.894273e-004
5.865309302393457e-008	1.309540e+001	5.082126e-001	5.143508e+000	5.143007e+000	-5.012024e-004	8.580606e-004
5.965309302427557e-008	1.309540e+001	5.110557e-001	5.143633e+000	5.142979e+000	-6.540915e-004	1.120276e-003
6.065309302461658e-008	1.309541e+001	5.146546e-001	5.143789e+000	5.142951e+000	-8.381800e-004	1.434786e-003
6.165309302495758e-008	1.309541e+001	5.189202e-001	5.143947e+000	5.142922e+000	-1.024675e-003	1.753036e-003
6.265309302529859e-008	1.309542e+001	5.237965e-001	5.144098e+000	5.142894e+000	-1.204244e-003	2.059384e-003
6.365309302563960e-008	1.309543e+001	5.292484e-001	5.144241e+000	5.142866e+000	-1.375352e-003	2.351275e-003
6.465309302598060e-008	1.309543e+001	5.352532e-001	5.144376e+000	5.142837e+000	-1.539022e-003	2.630506e-003
6.565309302632161e-008	1.309544e+001	5.418049e-001	5.144507e+000	5.142809e+000	-1.698144e-003	2.902043e-003
6.665309302666261e-008	1.309544e+001	5.489241e-001	5.144638e+000	5.142780e+000	-1.857948e-003	3.174887e-003
6.765309302700362e-008	1.309545e+001	5.567238e-001	5.144786e+000	5.142752e+000	-2.034060e-003	3.476116e-003
6.865309302734463e-008	1.309546e+001	5.659651e-001	5.145049e+000	5.142724e+000	-2.325683e-003	3.978487e-003
6.965309302768563e-008	1.309548e+001	5.786567e-001	5.145656e+000	5.142695e+000	-2.960660e-003	5.073390e-003
7.065309302802664e-008	1.309552e+001	5.970448e-001	5.146756e+000	5.142667e+000	-4.089388e-003	7.011447e-003
7.165309302836764e-008	1.309558e+001	6.220013e-001	5.148228e+000	5.142638e+000	-5.589924e-003	9.577853e-003
7.265309302870865e-008	1.309564e+001	6.531850e-001	5.149836e+000	5.142610e+000	-7.225301e-003	1.236913e-002
7.365309302904965e-008	1.309571e+001	6.900923e-001	5.151436e+000	5.142581e+000	-8.854352e-003	1.514739e-002
7.465309302939066e-008	1.309577e+001	7.323906e-001	5.152986e+000	5.142553e+000	-1.043269e-002	1.783799e-002
7.565309302973167e-008	1.309583e+001	7.798299e-001	5.154476e+000	5.142525e+000	-1.195055e-002	2.042454e-002
7.665309303007267e-008	1.309588e+001	8.321975e-001	5.155905e+000	5.142497e+000	-1.340869e-002	2.290839e-002
7.765309303041368e-008	1.309594e+001	8.893067e-001	5.157279e+000	5.142468e+000	-1.481123e-002	2.529652e-002
7.865309303075468e-008	1.309599e+001	9.509871e-001	5.158602e+000	5.142440e+000	-1.616263e-002	2.759645e-002
7.965309303109569e-008	1.309604e+001	1.017079e+000	5.159878e+000	5.142411e+000	-1.746664e-002	2.981451e-002
8.065309303143670e-008	1.309609e+001	1.087428e+000	5.161109e+000	5.142383e+000	-1.872597e-002	3.195526e-002
8.165309303177770e-008	1.309614e+001	1.161881e+000	5.162297e+000	5.142354e+000	-1.994230e-002	3.402146e-002
8.265309303211871e-008	1.309619e+001	1.240287e+000	5.163443e+000	5.142326e+000	-2.111633e-002	3.601426e-002
8.465309303280072e-008	1.309628e+001	1.408324e+000	5.165606e+000	5.142270e+000	-2.333670e-002	3.977809e-002
8.665309303348273e-008	1.309637e+001	1.590231e+000	5.167593e+000	5.142213e+000	-2.538034e-002	4.323496e-002
8.865309303416474e-008	1.309645e+001	1.784602e+000	5.169391e+000	5.142156e+000	-2.723537e-002	4.636449e-002
8.965309303450575e-008	1.309648e+001	1.885995e+000	5.170216e+000	5.142128e+000	-2.808792e-002	4.779930e-002
9.065309303484676e-008	1.309652e+001	1.989934e+000	5.170988e+000	5.142099e+000	-2.888825e-002	4.914369e-002
9.165309303518776e-008	1.309655e+001	2.096216e+000	5.171706e+000	5.142071e+000	-2.963479e-002	5.039504e-002
9.265309303552877e-008	1.309658e+001	2.204636e+000	5.172369e+000	5.142043e+000	-3.032614e-002	5.155098e-002
9.365309303586977e-008	1.309661e+001	2.314985e+000	5.172975e+000	5.142014e+000	-3.096109e-002	5.260954e-002
9.465309303621078e-008	1.309663e+001	2.427052e+000	5.173524e+000	5.141986e+000	-3.153863e-002	5.356909e-002
9.565309303655178e-008	1.309665e+001	2.540622e+000	5.174015e+000	5.141957e+000	-3.205787e-002	5.442818e-002
9.665309303689279e-008	1.309668e+001	2.655481e+000	5.174447e+000	5.141929e+000	-3.251794e-002	5.518544e-002
9.765309303723380e-008	1.309669e+001	2.771411e+000	5.174819e+000	5.141901e+000	-3.291835e-002	5.584015e-002
9.865309303757480e-008	1.309671e+001	2.888203e+000	5.175132e+000	5.141872e+000	-3.325956e-002	5.639324e-002
9.965309303791581e-008	1.309673e+001	3.005656e+000	5.175387e+000	5.141844e+000	-3.354334e-002	5.684786e-002
1.006530930382568e-007	1.309674e+001	3.123588e+000	5.175588e+000	5.141815e+000	-3.377269e-002	5.720927e-002
1.016530930385978e-007	1.309675e+001	3.241832e+000	5.175738e+000	5.141787e+000	-3.395157e-002	5.748427e-002
1.026530930389388e-007	1.309676e+001	3.360239e+000	5.175843e+000	5.141758e+000	-3.408439e-002	5.768051e-002
1.036530930392798e-007	1.309676e+001	3.478677e+000	5.175906e+000	5.141730e+000	-3.417562e-002	5.780574e-002
1.046530930396208e-007	1.309677e+001	3.597028e+000	5.175931e+000	5.141702e+000	-3.422892e-002	5.786733e-002
1.056530930399618e-007	1.309677e+001	3.715187e+000	5.175915e+000	5.141674e+000	-3.424174e-002	5.787204e-002
1.066530930403029e-007	1.309677e+001	3.833057e+000	5.175799e+000	5.141645e+000	-3.415414e-002	5.782587e-002
1.076530930406439e-007	1.309675e+001	3.950530e+000	5.175056e+000	5.141617e+000	-3.343916e-002	5.773425e-002
1.086530930409849e-007	1.309658e+001	4.067384e+000	5.170561e+000	5.141588e+000	-2.897224e-002	5.760267e-002
1.096530930413259e-007	1.309585e+001	4.183055e+000	5.151678e+000	5.141560e+000	-1.011747e-002	5.743807e-002
1.106530930416669e-007	1.309383e+001	4.296580e+000	5.099027e+000	5.141531e+000	4.250442e-002	5.724875e-002
1.116530930420079e-007	1.308978e+001	4.407057e+000	4.994333e+000	5.141503e+000	1.471704e-001	5.704147e-002
1.126530930423489e-007	1.308345e+001	4.514128e+000	4.830831e+000	5.141475e+000	3.106438e-001	5.681951e-002
1.136530930426899e-007	1.307494e+001	4.617902e+000	4.611672e+000	5.141447e+000	5.297744e-001	5.658410e-002
1.146530930430309e-007	1.306447e+001	4.718637e+000	4.343025e+000	5.141418e+000	7.983935e-001	5.633620e-002
1.156530930433719e-007	1.305227e+001	4.816573e+000	4.030666e+000	5.141390e+000	1.110724e+000	5.607677e-002
1.166530930437129e-007	1.303849e+001	4.911910e+000	3.679441e+000	5.141362e+000	1.461921e+000	5.580673e-002
1.176530930440539e-007	1.302331e+001	5.004813e+000	3.293441e+000	5.141334e+000	1.847893e+000	5.552693e-002
1.186530930443949e-007	1.300684e+001	5.095424e+000	2.876201e+000	5.141306e+000	2.265105e+000	5.523815e-002
1.196530930447359e-007	1.298919e+001	5.183866e+000	2.430835e+000	5.141278e+000	2.710443e+000	5.494107e-002
1.206530930450769e-007	1.297047e+001	5.270247e+000	1.960124e+000	5.141250e+000	3.181127e+000	5.463634e-002
1.216530930454179e-007	1.295077e+001	5.354664e+000	1.466572e+000	5.141222e+000	3.674650e+000	5.432451e-002
1.226530930457589e-007	1.293015e+001	5.437204e+000	9.524508e-001	5.141195e+000	4.188744e+000	5.400611e-002
1.236530930461000e-007	1.290870e+001	5.517943e+000	4.198320e-001	5.141167e+000	4.721335e+000	5.368160e-002
1.246530930464410e-007	1.288648e+001	5.596951e+000	-1.293855e-001	5.141140e+000	5.270525e+000	5.335141e-002
1.256530930467820e-007	1.286355e+001	5.674291e+000	-6.934534e-001	5.141112e+000	5.834566e+000	5.301594e-002
1.266530930471230e-007	1.283995e+001	5.750020e+000	-1.270754e+000	5.141085e+000	6.411839e+000	5.267555e-002
1.276530930474640e-007	1.281574e+001	5.824188e+000	-1.859782e+000	5.141058e+000	7.000840e+000	5.233059e-002
1.286530930478050e-007	1.279094e+001	5.896842e+000	-2.459134e+000	5.141031e+000	7.600165e+000	5.198137e-002
1.296530930481460e-007	1.276560e+001	5.968020e+000	-3.067488e+000	5.141004e+000	8.208492e+000	5.162820e-002
1.306530930484870e-007	1.273974e+001	6.037761e+000	-3.683596e+000	5.140977e+000	8.824574e+000	5.127138e-002
1.316530930488280e-007	1.271338e+001	6.106093e+000	-4.306266e+000	5.140950e+000	9.447216e+000	5.091119e-002
1.326530930491690e-007	1.268653e+001	6.173044e+000	-4.934352e+000	5.140924e+000	1.007528e+001	5.054792e-002
1.336530930495100e-007	1.265920e+001	6.238635e+000	-5.566741e+000	5.140897e+000	1.070764e+001	5.018185e-002
1.346530930498510e-007	1.263139e+001	6.302879e+000	-6.202329e+000	5.140871e+000	1.134320e+001	4.981329e-002
1.356530930501920e-007	1.260308e+001	6.365787e+000	-6.840003e+000	5.140845e+000	1.198085e+001	4.944254e-002
1.366530930505330e-007	1.257423e+001	6.427358e+000	-7.478613e+000	5.140819e+000	1.261943e+001	4.906998e-002
1.376530930508740e-007	1.254478e+001	6.487579e+000	-8.116923e+000	5.140793e+000	1.325772e+001	4.869600e-002
1.386530930512150e-007	1.251464e+001	6.546423e+000	-8.753543e+000	5.140767e+000	1.389431e+001	4.832109e-002
1.396530930515560e-007	1.248367e+001	6.603837e+000	-9.386812e+000	5.140741e+000	1.452755e+001	4.794588e-002
1.406530930518971e-007	1.245162e+001	6.659727e+000	-1.001458e+001	5.140716e+000	1.515529e+001	4.757124e-002
1.416530930522381e-007	1.241810e+001	6.713925e+000	-1.063374e+001	5.140690e+000	1.577443e+001	4.719851e-002
1.426530930525791e-007	1.238235e+001	6.766105e+000	-1.123917e+001	5.140665e+000	1.637984e+001	4.682997e-002
1.436530930529201e-007	1.234270e+001	6.815532e+000	-1.182038e+001	5.140640e+000	1.696102e+001	4.647055e-002
1.446530930532611e-007	1.229372e+001	6.859771e+000	-1.234434e+001	5.140615e+000	1.748495e+001	4.613649e-002
1.456530930536021e-007	1.222396e+001	6.893834e+000	-1.273947e+001	5.140591e+000	1.788006e+001	4.586643e-002
1.460319333478066e-007	1.216384e+001	6.891439e+000	-1.266733e+001	5.140582e+000	1.780791e+001	4.588501e-002
1.462436214480153e-007	1.174104e+001	6.722269e+000	-9.111879e+000	5.140576e+000	1.425246e+001	4.746683e-002
1.463162416512689e-007	1.104648e+001	6.418467e+000	-3.704660e+000	5.140575e+000	8.845236e+000	5.031756e-002
1.463403453780959e-007	1.064263e+001	6.228528e+000	-1.672594e+000	5.140574e+000	6.813169e+000	5.206857e-002
1.463579227195880e-007	1.037262e+001	6.093048e+000	-1.109784e+000	5.140574e+000	6.250359e+000	5.326613e-002
1.463778224403481e-007	1.015057e+001	5.979436e+000	-8.290763e-001	5.140574e+000	5.969650e+000	5.419913e-002
1.463958951564148e-007	1.000283e+001	5.903771e+000	-6.092780e-001	5.140574e+000	5.749852e+000	5.475652e-002
1.464320405894157e-007	9.797926e+000	5.797935e+000	-3.717861e-001	5.140573e+000	5.512359e+000	5.539634e-002
1.464655549985455e-007	9.675171e+000	5.734798e+000	-2.355403e-001	5.140573e+000	5.376113e+000	5.563445e-002
1.465255872268659e-007	9.551881e+000	5.672360e+000	-1.170387e-001	5.140572e+000	5.257611e+000	5.557096e-002
1.465880866023325e-007	9.483871e+000	5.639560e+000	-5.824296e-002	5.140571e+000	5.198814e+000	5.524017e-002
1.466845713686896e-007	9.435392e+000	5.619430e+000	-2.676186e-002	5.140570e+000	5.167332e+000	5.456803e-002
1.468026937867864e-007	9.404128e+000	5.610389e+000	-1.472590e-002	5.140569e+000	5.155294e+000	5.381557e-002
1.469698079235512e-007	9.374448e+000	5.606172e+000	-1.164364e-002	5.140567e+000	5.152210e+000	5.299617e-002
1.471280744831313e-007	9.349335e+000	5.604396e+000	-1.112260e-002	5.140565e+000	5.151688e+000	5.246279e-002
1.472887349359547e-007	9.324514e+000	5.603422e+000	-1.100932e-002	5.140563e+000	5.151572e+000	5.211949e-002
1.474664750667279e-007	9.297307e+000	5.602812e+000	-1.084832e-002	5.140561e+000	5.151409e+000	5.188439e-002
1.476470264504676e-007	9.269861e+000	5.602512e+000	-1.077574e-002	5.140559e+000	5.151335e+000	5.174301e-002
1.478515613403605e-007	9.238929e+000	5.602409e+000	-1.065406e-002	5.140557e+000	5.151211e+000	5.165517e-002
1.480718258154226e-007	9.205753e+000	5.602456e+000	-1.060188e-002	5.140554e+000	5.151156e+000	5.160913e-002
1.483407867462067e-007	9.165382e+000	5.602633e+000	-1.048391e-002	5.140552e+000	5.151035e+000	5.158920e-002
1.486483931500970e-007	9.119366e+000	5.602910e+000	-1.041700e-002	5.140549e+000	5.150965e+000	5.158968e-002
1.490587647028085e-007	9.058202e+000	5.603332e+000	-1.027485e-002	5.140544e+000	5.150819e+000	5.160632e-002
1.495671542598234e-007	8.982791e+000	5.603879e+000	-1.015436e-002	5.140539e+000	5.150693e+000	5.163496e-002
1.503604125175154e-007	8.865890e+000	5.604740e+000	-9.923049e-003	5.140532e+000	5.150455e+000	5.168297e-002
1.513604125178564e-007	8.719747e+000	5.605814e+000	-9.662920e-003	5.140523e+000	5.150186e+000	5.174261e-002
1.523604125181974e-007	8.575089e+000	5.606874e+000	-9.403485e-003	5.140515e+000	5.149919e+000	5.180000e-002
1.533604125185384e-007	8.432094e+000	5.607915e+000	-9.149768e-003	5.140508e+000	5.149657e+000	5.185496e-002
1.543604125188794e-007	8.290872e+000	5.608937e+000	-8.899376e-003	5.140501e+000	5.149400e+000	5.190763e-002
1.553604125192204e-007	8.151537e+000	5.609941e+000	-8.652927e-003	5.140494e+000	5.149148e+000	5.195809e-002
1.563604125195614e-007	8.014206e+000	5.610924e+000	-8.408370e-003	5.140489e+000	5.148897e+000	5.200646e-002
1.573604125199024e-007	7.879004e+000	5.611886e+000	-8.166334e-003	5.140484e+000	5.148650e+000	5.205285e-002
1.583604125202434e-007	7.746057e+000	5.612826e+000	-7.925071e-003	5.140480e+000	5.148405e+000	5.209734e-002
1.593604125205844e-007	7.615494e+000	5.613744e+000	-7.685269e-003	5.140476e+000	5.148161e+000	5.214001e-002
1.603604125209254e-007	7.487445e+000	5.614639e+000	-7.445495e-003	5.140472e+000	5.147918e+000	5.218097e-002
1.613604125212664e-007	7.362043e+000	5.615509e+000	-7.206562e-003	5.140470e+000	5.147676e+000	5.222029e-002
1.623604125216074e-007	7.239417e+000	5.616354e+000	-6.967390e-003	5.140468e+000	5.147435e+000	5.225805e-002
1.633604125219484e-007	7.119690e+000	5.617174e+000	-6.729002e-003	5.140467e+000	5.147196e+000	5.229432e-002
1.643604125222895e-007	7.002983e+000	5.617968e+000	-6.490738e-003	5.140466e+000	5.146956e+000	5.232917e-002
1.653604125226305e-007	6.889400e+000	5.618734e+000	-6.253918e-003	5.140465e+000	5.146719e+000	5.236267e-002
1.663604125229715e-007	6.779036e+000	5.619475e+000	-6.018354e-003	5.140465e+000	5.146483e+000	5.239487e-002
1.673604125233125e-007	6.671963e+000	5.620189e+000	-5.785716e-003	5.140466e+000	5.146252e+000	5.242585e-002
1.693604125239945e-007	6.467865e+000	5.621539e+000	-5.332026e-003	5.140469e+000	5.145801e+000	5.248431e-002
1.713604125246765e-007	6.277169e+000	5.622792e+000	-4.902974e-003	5.140473e+000	5.145376e+000	5.253845e-002
1.733604125253585e-007	6.099432e+000	5.623958e+000	-4.509286e-003	5.140479e+000	5.144988e+000	5.258857e-002
1.753604125260405e-007	5.933721e+000	5.625049e+000	-4.159641e-003	5.140487e+000	5.144646e+000	5.263498e-002
1.773604125267225e-007	5.778723e+000	5.626081e+000	-3.858449e-003	5.140496e+000	5.144354e+000	5.267793e-002
1.793604125274045e-007	5.632940e+000	5.627065e+000	-3.605206e-003	5.140506e+000	5.144112e+000	5.271764e-002
1.813604125280866e-007	5.494872e+000	5.628011e+000	-3.395588e-003	5.140518e+000	5.143913e+000	5.275433e-002
1.833604125287686e-007	5.363147e+000	5.628925e+000	-3.223444e-003	5.140531e+000	5.143754e+000	5.278821e-002
1.863604125297916e-007	5.174914e+000	5.630251e+000	-3.021576e-003	5.140553e+000	5.143574e+000	5.283416e-002
1.893604125308146e-007	4.995137e+000	5.631535e+000	-2.871283e-003	5.140576e+000	5.143448e+000	5.287478e-002
1.915032696744025e-007	4.871493e+000	5.632426e+000	-2.792683e-003	5.140595e+000	5.143388e+000	5.290047e-002
1.936461268179903e-007	4.749296e+000	5.633309e+000	-2.722720e-003	5.140615e+000	5.143338e+000	5.292426e-002
1.957889839615782e-007	4.628544e+000	5.634182e+000	-2.661396e-003	5.140636e+000	5.143297e+000	5.294613e-002
1.979318411051661e-007	4.509238e+000	5.635047e+000	-2.608710e-003	5.140659e+000	5.143267e+000	5.296610e-002
2.000746982487540e-007	4.391378e+000	5.635902e+000	-2.564662e-003	5.140682e+000	5.143246e+000	5.298416e-002
2.022175553923418e-007	4.274965e+000	5.636748e+000	-2.529252e-003	5.140707e+000	5.143236e+000	5.300032e-002
2.043604125359297e-007	4.159997e+000	5.637586e+000	-2.502480e-003	5.140732e+000	5.143235e+000	5.301456e-002
2.072175553940468e-007	4.006963e+000	5.638697e+000	-2.468294e-003	5.140768e+000	5.143237e+000	5.303126e-002
2.100746982521640e-007	3.854330e+000	5.639804e+000	-2.436688e-003	5.140806e+000	5.143243e+000	5.304605e-002
2.129318411102812e-007	3.702096e+000	5.640908e+000	-2.407662e-003	5.140846e+000	5.143254e+000	5.305893e-002
2.157889839683983e-007	3.550263e+000	5.642008e+000	-2.381216e-003	5.140888e+000	5.143269e+000	5.306990e-002
2.186461268265155e-007	3.398829e+000	5.643105e+000	-2.357351e-003	5.140932e+000	5.143289e+000	5.307896e-002
